
T33D4 000:002 SEGGER J-Link V6.16c Log File (0001ms, 0003ms total)
T33D4 000:002 DLL Compiled: Jun 16 2017 18:14:49 (0001ms, 0003ms total)
T33D4 000:002 Logging started @ 2018-07-10 21:09 (0001ms, 0003ms total)
T33D4 000:003 JLINK_SetWarnOutHandler(...) (0000ms, 0003ms total)
T33D4 000:003 JLINK_OpenEx(...)
Firmware: J-Link V9 compiled Jun 16 2017 16:15:10
Hardware: V9.40
S/N: 59402570
Feature(s): RDI, GDB, FlashDL, FlashBP, JFlashWEBSRV Webserver running on local port 19080 (0052ms, 0055ms total)
T33D4 000:003   returns O.K. (0052ms, 0055ms total)
T33D4 000:055 JLINK_GetEmuCaps()  returns 0xB9FF7BBF (0000ms, 0055ms total)
T33D4 000:055 JLINK_TIF_GetAvailable(...) (0001ms, 0056ms total)
T33D4 000:056 JLINK_SetErrorOutHandler(...) (0000ms, 0056ms total)
T33D4 000:056 JLINK_ExecCommand("ProjectFile = "C:\Users\huangcaihui\Desktop\STM32Cube_FW_F4_V1.21.0\Projects\STM324xG_EVAL\Applications\USB_Device\HID_Standalone\MDK-ARM\JLinkSettings.ini"", ...).   returns 0x00 (0174ms, 0230ms total)
T33D4 000:230 JLINK_ExecCommand("Device = STM32F405RGTx", ...). Device "STM32F405RG" selected.  returns 0x00 (0003ms, 0233ms total)
T33D4 000:233 JLINK_ExecCommand("DisableConnectionTimeout", ...).   returns 0x01 (0000ms, 0233ms total)
T33D4 000:233 JLINK_GetHardwareVersion()  returns 0x16F30 (0000ms, 0233ms total)
T33D4 000:233 JLINK_GetDLLVersion()  returns 61603 (0000ms, 0233ms total)
T33D4 000:233 JLINK_GetFirmwareString(...) (0000ms, 0233ms total)
T33D4 000:233 JLINK_GetDLLVersion()  returns 61603 (0000ms, 0233ms total)
T33D4 000:233 JLINK_GetCompileDateTime() (0000ms, 0233ms total)
T33D4 000:233 JLINK_GetFirmwareString(...) (0000ms, 0233ms total)
T33D4 000:233 JLINK_GetHardwareVersion()  returns 0x16F30 (0000ms, 0233ms total)
T33D4 000:233 JLINK_TIF_Select(JLINKARM_TIF_SWD)  returns 0x00 (0002ms, 0235ms total)
T33D4 000:235 JLINK_SetSpeed(5000) (0000ms, 0235ms total)
T33D4 000:235 JLINK_GetId() >0x10B TIF>Found SW-DP with ID 0x2BA01477 >0x0D TIF> >0x28 TIF> >0x0D TIF> >0x28 TIF> >0x0D TIF> >0x28 TIF> >0x0D TIF> >0x28 TIF> >0x0D TIF> >0x21 TIF> >0x0D TIF> >0x28 TIF> >0x0D TIF> >0x28 TIF> >0x0D TIF> >0x28 TIF> >0x0D TIF> >0x21 TIF> >0x0D TIF> >0x21 TIF> >0x0D TIF> >0x28 TIF> >0x0D TIF> >0x21 TIF> >0x0D TIF> >0x21 TIF> >0x0D TIF> >0x28 TIF> >0x0D TIF> >0x21 TIF> >0x0D TIF> >0x21 TIF> >0x0D TIF> >0x28 TIF> >0x0D TIF> >0x21 TIF> >0x0D TIF> >0x21 TIF> >0x0D TIF> >0x28 TIF>
 >0x0D TIF> >0x21 TIF> >0x0D TIF> >0x21 TIF> >0x0D TIF> >0x28 TIF> >0x0D TIF> >0x21 TIF> >0x0D TIF> >0x21 TIF> >0x10B TIF>Found SW-DP with ID 0x2BA01477 >0x0D TIF> >0x28 TIF> >0x0D TIF> >0x28 TIF> >0x0D TIF> >0x28 TIF> >0x0D TIF> >0x28 TIF> >0x0D TIF> >0x21 TIF> >0x0D TIF> >0x28 TIF>Scanning APs, stopping at first AHB-AP found. >0x0D TIF> >0x28 TIF> >0x0D TIF> >0x21 TIF> >0x0D TIF> >0x21 TIF>AP[0] IDR: 0x24770011 (AHB-AP) >0x0D TIF> >0x28 TIF> >0x0D TIF> >0x21 TIF> >0x0D TIF> >0x21 TIF>
AHB-AP ROM: 0xE00FF000 (Base addr. of first ROM table) >0x0D TIF> >0x28 TIF> >0x0D TIF> >0x28 TIF> >0x0D TIF> >0x28 TIF> >0x0D TIF> >0x21 TIF> >0x0D TIF> >0x21 TIF> >0x0D TIF> >0x28 TIF> >0x0D TIF> >0x21 TIF> >0x0D TIF> >0x21 TIF>CPUID reg: 0x410FC241. Implementer code: 0x41 (ARM)Found Cortex-M4 r0p1, Little endian. -- CPU_ReadMem(4 bytes @ 0xE000EDF0) -- CPU_ReadMem(4 bytes @ 0xE0002000)FPUnit: 6 code (BP) slots and 2 literal slots -- CPU_ReadMem(4 bytes @ 0xE000EDFC)
 -- CPU_ReadMem(4 bytes @ 0xE0001000) -- CPU_WriteMem(4 bytes @ 0xE0001000) -- CPU_ReadMem(4 bytes @ 0xE000ED88) -- CPU_WriteMem(4 bytes @ 0xE000ED88) -- CPU_ReadMem(4 bytes @ 0xE000ED88) -- CPU_WriteMem(4 bytes @ 0xE000ED88)CoreSight components:ROMTbl[0] @ E00FF000 -- CPU_ReadMem(16 bytes @ 0xE00FF000) -- CPU_ReadMem(16 bytes @ 0xE000EFF0) -- CPU_ReadMem(16 bytes @ 0xE000EFE0)ROMTbl[0][0]: E000E000, CID: B105E00D, PID: 000BB00C SCS -- CPU_ReadMem(16 bytes @ 0xE0001FF0)
 -- CPU_ReadMem(16 bytes @ 0xE0001FE0)ROMTbl[0][1]: E0001000, CID: B105E00D, PID: 003BB002 DWT -- CPU_ReadMem(16 bytes @ 0xE0002FF0) -- CPU_ReadMem(16 bytes @ 0xE0002FE0)ROMTbl[0][2]: E0002000, CID: B105E00D, PID: 002BB003 FPB -- CPU_ReadMem(16 bytes @ 0xE0000FF0) -- CPU_ReadMem(16 bytes @ 0xE0000FE0)ROMTbl[0][3]: E0000000, CID: B105E00D, PID: 003BB001 ITM -- CPU_ReadMem(16 bytes @ 0xE00FF010) -- CPU_ReadMem(16 bytes @ 0xE0040FF0) -- CPU_ReadMem(16 bytes @ 0xE0040FE0)
ROMTbl[0][4]: E0040000, CID: B105900D, PID: 000BB9A1 TPIU -- CPU_ReadMem(16 bytes @ 0xE0041FF0) -- CPU_ReadMem(16 bytes @ 0xE0041FE0)ROMTbl[0][5]: E0041000, CID: B105900D, PID: 000BB925 ETM >0x0D TIF> >0x21 TIF>  returns 0x2BA01477 (0059ms, 0294ms total)
T33D4 000:294 JLINK_GetDLLVersion()  returns 61603 (0000ms, 0294ms total)
T33D4 000:294 JLINK_CORE_GetFound()  returns 0xE0000FF (0000ms, 0294ms total)
T33D4 000:294 JLINK_GetDebugInfo(0x100 = JLINKARM_ROM_TABLE_ADDR_INDEX) -- Value=0xE00FF000  returns 0x00 (0000ms, 0294ms total)
T33D4 000:294 JLINK_GetDebugInfo(0x100 = JLINKARM_ROM_TABLE_ADDR_INDEX) -- Value=0xE00FF000  returns 0x00 (0000ms, 0294ms total)
T33D4 000:294 JLINK_GetDebugInfo(0x101 = JLINKARM_DEBUG_INFO_ETM_ADDR_INDEX) -- Value=0xE0041000  returns 0x00 (0000ms, 0294ms total)
T33D4 000:294 JLINK_ReadMemEx(0xE0041FD0, 0x0020 Bytes, ..., Flags = 0x02000004) -- CPU_ReadMem(32 bytes @ 0xE0041FD0) - Data: 04 00 00 00 00 00 00 00 00 00 00 00 00 00 00 00 ...  returns 0x20 (0002ms, 0296ms total)
T33D4 000:296 JLINK_GetDebugInfo(0x102 = JLINKARM_DEBUG_INFO_MTB_ADDR_INDEX) -- Value=0x00000000  returns 0x00 (0000ms, 0296ms total)
T33D4 000:296 JLINK_GetDebugInfo(0x103 = JLINKARM_DEBUG_INFO_TPIU_ADDR_INDEX) -- Value=0xE0040000  returns 0x00 (0000ms, 0296ms total)
T33D4 000:296 JLINK_GetDebugInfo(0x104 = JLINKARM_DEBUG_INFO_ITM_ADDR_INDEX) -- Value=0xE0000000  returns 0x00 (0000ms, 0296ms total)
T33D4 000:296 JLINK_GetDebugInfo(0x105 = JLINKARM_DEBUG_INFO_DWT_ADDR_INDEX) -- Value=0xE0001000  returns 0x00 (0000ms, 0296ms total)
T33D4 000:296 JLINK_GetDebugInfo(0x106 = JLINKARM_DEBUG_INFO_FPB_ADDR_INDEX) -- Value=0xE0002000  returns 0x00 (0000ms, 0296ms total)
T33D4 000:296 JLINK_GetDebugInfo(0x107 = JLINKARM_DEBUG_INFO_NVIC_ADDR_INDEX) -- Value=0xE000E000  returns 0x00 (0000ms, 0296ms total)
T33D4 000:296 JLINK_GetDebugInfo(0x10C = JLINKARM_DEBUG_INFO_DBG_ADDR_INDEX) -- Value=0xE000EDF0  returns 0x00 (0000ms, 0296ms total)
T33D4 000:296 JLINK_ReadMemU32(0xE000EF40, 0x0001 Items, ...) -- CPU_ReadMem(4 bytes @ 0xE000EF40) - Data: 21 00 11 10  returns 0x01 (0001ms, 0297ms total)
T33D4 000:297 JLINK_ReadMemU32(0xE000EF44, 0x0001 Items, ...) -- CPU_ReadMem(4 bytes @ 0xE000EF44) - Data: 11 00 00 11  returns 0x01 (0000ms, 0297ms total)
T33D4 000:297 JLINK_ReadMemU32(0xE000ED00, 0x0001 Items, ...) -- CPU_ReadMem(4 bytes @ 0xE000ED00) - Data: 41 C2 0F 41  returns 0x01 (0001ms, 0298ms total)
T33D4 000:298 JLINK_GetDebugInfo(0x10F = JLINKARM_DEBUG_INFO_HAS_CORTEX_M_SECURITY_EXT_INDEX) -- Value=0x00000000  returns 0x00 (0000ms, 0298ms total)
T33D4 000:298 JLINK_SetResetType(JLINKARM_CM3_RESET_TYPE_NORMAL)  returns JLINKARM_CM3_RESET_TYPE_NORMAL (0000ms, 0298ms total)
T33D4 000:298 JLINK_Reset() -- CPU is running -- CPU_WriteMem(4 bytes @ 0xE000EDF0) -- CPU is running -- CPU_WriteMem(4 bytes @ 0xE000EDFC) >0x35 TIF>Setting AIRCR.SYSRESETREQ -- CPU is running -- CPU_WriteMem(4 bytes @ 0xE000ED0C) >0x0D TIF> >0x28 TIF> -- CPU_ReadMem(4 bytes @ 0xE000ED0C) -- CPU_ReadMem(4 bytes @ 0xE000EDF0) -- CPU_ReadMem(4 bytes @ 0xE000EDF0) -- CPU_ReadMem(4 bytes @ 0xE000EDF0) -- CPU is running -- CPU_WriteMem(4 bytes @ 0xE000EDF0) -- CPU is running
 -- CPU_WriteMem(4 bytes @ 0xE000EDFC) -- CPU_ReadMem(4 bytes @ 0xE000EDF0) -- CPU_WriteMem(4 bytes @ 0xE0002000) -- CPU_ReadMem(4 bytes @ 0xE000EDFC) -- CPU_ReadMem(4 bytes @ 0xE0001000) (0071ms, 0369ms total)
T33D4 000:369 JLINK_ReadReg(R15 (PC))  returns 0x0800019C (0000ms, 0369ms total)
T33D4 000:369 JLINK_ReadReg(XPSR)  returns 0x01000000 (0000ms, 0369ms total)
T33D4 000:369 JLINK_Halt()  returns 0x00 (0000ms, 0369ms total)
T33D4 000:369 JLINK_ReadMemU32(0xE000EDF0, 0x0001 Items, ...) -- CPU_ReadMem(4 bytes @ 0xE000EDF0) - Data: 03 00 03 00  returns 0x01 (0000ms, 0369ms total)
T33D4 000:369 JLINK_WriteU32(0xE000EDF0, 0xA05F0003) -- CPU_WriteMem(4 bytes @ 0xE000EDF0)  returns 0x00 (0001ms, 0370ms total)
T33D4 000:370 JLINK_WriteU32(0xE000EDFC, 0x01000000) -- CPU_WriteMem(4 bytes @ 0xE000EDFC)  returns 0x00 (0001ms, 0371ms total)
T33D4 000:371 JLINK_GetHWStatus(...)  returns 0x00 (0001ms, 0372ms total)
T33D4 000:372 JLINK_GetNumBPUnits(Type = 0xFFFFFF00)  returns 0x06 (0000ms, 0372ms total)
T33D4 000:372 JLINK_GetNumBPUnits(Type = 0xF0)  returns 0x2000 (0000ms, 0372ms total)
T33D4 000:372 JLINK_GetNumWPUnits()  returns 0x04 (0000ms, 0372ms total)
T33D4 000:372 JLINK_GetSpeed()  returns 0xFA0 (0000ms, 0372ms total)
T33D4 000:372 JLINK_ReadMemU32(0xE000E004, 0x0001 Items, ...) -- CPU_ReadMem(4 bytes @ 0xE000E004) - Data: 02 00 00 00  returns 0x01 (0001ms, 0373ms total)
T33D4 000:373 JLINK_ReadMemU32(0xE000E004, 0x0001 Items, ...) -- CPU_ReadMem(4 bytes @ 0xE000E004) - Data: 02 00 00 00  returns 0x01 (0001ms, 0374ms total)
T33D4 000:374 JLINK_WriteMemEx(0xE0001000, 0x001C Bytes, ..., Flags = 0x02000004) - Data: 01 00 00 00 00 00 00 00 00 00 00 00 00 00 00 00 ... -- CPU_WriteMem(28 bytes @ 0xE0001000)  returns 0x1C (0001ms, 0375ms total)
T33D4 000:376 JLINK_ReadReg(R15 (PC))  returns 0x0800019C (0000ms, 0375ms total)
T33D4 000:376 JLINK_ReadReg(XPSR)  returns 0x01000000 (0000ms, 0375ms total)
T33D4 000:523 JLINK_SetResetType(JLINKARM_CM3_RESET_TYPE_NORMAL)  returns JLINKARM_CM3_RESET_TYPE_NORMAL (0000ms, 0375ms total)
T33D4 000:523 JLINK_Reset() -- CPU_WriteMem(4 bytes @ 0xE000EDF0) -- CPU_WriteMem(4 bytes @ 0xE000EDFC) >0x35 TIF>Setting AIRCR.SYSRESETREQ -- CPU_WriteMem(4 bytes @ 0xE000ED0C) >0x0D TIF> >0x28 TIF> -- CPU_ReadMem(4 bytes @ 0xE000ED0C) -- CPU_ReadMem(4 bytes @ 0xE000EDF0) -- CPU_ReadMem(4 bytes @ 0xE000EDF0) -- CPU_ReadMem(4 bytes @ 0xE000EDF0) -- CPU_WriteMem(4 bytes @ 0xE000EDF0) -- CPU_WriteMem(4 bytes @ 0xE000EDFC) -- CPU_ReadMem(4 bytes @ 0xE000EDF0) -- CPU_WriteMem(4 bytes @ 0xE0002000)
 -- CPU_ReadMem(4 bytes @ 0xE000EDFC) -- CPU_ReadMem(4 bytes @ 0xE0001000) (0070ms, 0445ms total)
T33D4 000:593 JLINK_ReadReg(R15 (PC))  returns 0x0800019C (0000ms, 0445ms total)
T33D4 000:593 JLINK_ReadReg(XPSR)  returns 0x01000000 (0000ms, 0445ms total)
T33D4 006:458 JLINK_ReadReg(R0)  returns 0x00000000 (0001ms, 0446ms total)
T33D4 006:459 JLINK_ReadReg(R1)  returns 0x00000000 (0000ms, 0446ms total)
T33D4 006:459 JLINK_ReadReg(R2)  returns 0x00000000 (0000ms, 0446ms total)
T33D4 006:459 JLINK_ReadReg(R3)  returns 0x00000000 (0000ms, 0446ms total)
T33D4 006:459 JLINK_ReadReg(R4)  returns 0x00000000 (0000ms, 0446ms total)
T33D4 006:459 JLINK_ReadReg(R5)  returns 0x00000000 (0000ms, 0446ms total)
T33D4 006:459 JLINK_ReadReg(R6)  returns 0x00000000 (0000ms, 0446ms total)
T33D4 006:459 JLINK_ReadReg(R7)  returns 0x00000000 (0000ms, 0446ms total)
T33D4 006:459 JLINK_ReadReg(R8)  returns 0x00000000 (0000ms, 0446ms total)
T33D4 006:459 JLINK_ReadReg(R9)  returns 0x00000000 (0000ms, 0446ms total)
T33D4 006:459 JLINK_ReadReg(R10)  returns 0x00000000 (0000ms, 0446ms total)
T33D4 006:459 JLINK_ReadReg(R11)  returns 0x00000000 (0000ms, 0446ms total)
T33D4 006:459 JLINK_ReadReg(R12)  returns 0x00000000 (0000ms, 0446ms total)
T33D4 006:459 JLINK_ReadReg(R13 (SP))  returns 0x20000E50 (0000ms, 0446ms total)
T33D4 006:459 JLINK_ReadReg(R14)  returns 0xFFFFFFFF (0000ms, 0446ms total)
T33D4 006:459 JLINK_ReadReg(R15 (PC))  returns 0x0800019C (0000ms, 0446ms total)
T33D4 006:459 JLINK_ReadReg(XPSR)  returns 0x01000000 (0000ms, 0446ms total)
T33D4 006:459 JLINK_ReadReg(MSP)  returns 0x20000E50 (0000ms, 0446ms total)
T33D4 006:459 JLINK_ReadReg(PSP)  returns 0x00000000 (0000ms, 0446ms total)
T33D4 006:459 JLINK_ReadReg(CFBP)  returns 0x00000000 (0000ms, 0446ms total)
T33D4 006:459 JLINK_ReadReg(FPSCR)  returns 0x00000000 (0006ms, 0452ms total)
T33D4 006:465 JLINK_ReadReg(FPS0)  returns 0x00000000 (0000ms, 0452ms total)
T33D4 006:465 JLINK_ReadReg(FPS1)  returns 0x00000000 (0000ms, 0452ms total)
T33D4 006:465 JLINK_ReadReg(FPS2)  returns 0x00000000 (0000ms, 0452ms total)
T33D4 006:465 JLINK_ReadReg(FPS3)  returns 0x00000000 (0000ms, 0452ms total)
T33D4 006:465 JLINK_ReadReg(FPS4)  returns 0x00000000 (0000ms, 0452ms total)
T33D4 006:465 JLINK_ReadReg(FPS5)  returns 0x00000000 (0000ms, 0452ms total)
T33D4 006:465 JLINK_ReadReg(FPS6)  returns 0x00000000 (0000ms, 0452ms total)
T33D4 006:465 JLINK_ReadReg(FPS7)  returns 0x00000000 (0000ms, 0452ms total)
T33D4 006:465 JLINK_ReadReg(FPS8)  returns 0x00000000 (0000ms, 0452ms total)
T33D4 006:465 JLINK_ReadReg(FPS9)  returns 0x00000000 (0000ms, 0452ms total)
T33D4 006:465 JLINK_ReadReg(FPS10)  returns 0x00000000 (0000ms, 0452ms total)
T33D4 006:465 JLINK_ReadReg(FPS11)  returns 0x00000000 (0000ms, 0452ms total)
T33D4 006:465 JLINK_ReadReg(FPS12)  returns 0x00000000 (0000ms, 0452ms total)
T33D4 006:465 JLINK_ReadReg(FPS13)  returns 0x00000000 (0000ms, 0452ms total)
T33D4 006:465 JLINK_ReadReg(FPS14)  returns 0x00000000 (0000ms, 0452ms total)
T33D4 006:465 JLINK_ReadReg(FPS15)  returns 0x00000000 (0000ms, 0452ms total)
T33D4 006:465 JLINK_ReadReg(FPS16)  returns 0x00000000 (0000ms, 0452ms total)
T33D4 006:465 JLINK_ReadReg(FPS17)  returns 0x00000000 (0000ms, 0452ms total)
T33D4 006:465 JLINK_ReadReg(FPS18)  returns 0x00000000 (0000ms, 0452ms total)
T33D4 006:465 JLINK_ReadReg(FPS19)  returns 0x00000000 (0000ms, 0452ms total)
T33D4 006:465 JLINK_ReadReg(FPS20)  returns 0x00000000 (0000ms, 0452ms total)
T33D4 006:465 JLINK_ReadReg(FPS21)  returns 0x00000000 (0000ms, 0452ms total)
T33D4 006:465 JLINK_ReadReg(FPS22)  returns 0x00000000 (0000ms, 0452ms total)
T33D4 006:465 JLINK_ReadReg(FPS23)  returns 0x00000000 (0000ms, 0452ms total)
T33D4 006:465 JLINK_ReadReg(FPS24)  returns 0x00000000 (0000ms, 0452ms total)
T33D4 006:465 JLINK_ReadReg(FPS25)  returns 0x00000000 (0000ms, 0452ms total)
T33D4 006:465 JLINK_ReadReg(FPS26)  returns 0x00000000 (0000ms, 0452ms total)
T33D4 006:465 JLINK_ReadReg(FPS27)  returns 0x00000000 (0000ms, 0452ms total)
T33D4 006:465 JLINK_ReadReg(FPS28)  returns 0x00000000 (0000ms, 0452ms total)
T33D4 006:465 JLINK_ReadReg(FPS29)  returns 0x00000000 (0001ms, 0453ms total)
T33D4 006:466 JLINK_ReadReg(FPS30)  returns 0x00000000 (0000ms, 0453ms total)
T33D4 006:466 JLINK_ReadReg(FPS31)  returns 0x00000000 (0000ms, 0453ms total)
T2E54 006:572 JLINK_ReadMemEx(0x0800019C, 0x0002 Bytes, ..., Flags = 0x02000000) -- CPU_ReadMem(64 bytes @ 0x08000180) -- Updating C cache (64 bytes @ 0x08000180) -- Read from C cache (2 bytes @ 0x0800019C) - Data: 06 48  returns 0x02 (0002ms, 0455ms total)
T2E54 006:574 JLINK_SetBPEx(Addr = 0x08002E44, Type = 0xFFFFFFF2)  returns 0x00000001 (0000ms, 0455ms total)
T2E54 006:574 JLINK_SetBPEx(Addr = 0x08002242, Type = 0xFFFFFFF2)  returns 0x00000002 (0000ms, 0455ms total)
T2E54 006:574 JLINK_Go() -- CPU_WriteMem(4 bytes @ 0xE0002000) -- CPU_WriteMem(4 bytes @ 0xE0002000) -- CPU_ReadMem(4 bytes @ 0xE0001000) -- CPU_WriteMem(4 bytes @ 0xE0002008) -- CPU_WriteMem(4 bytes @ 0xE000200C) -- CPU_WriteMem(4 bytes @ 0xE0002010) -- CPU_WriteMem(4 bytes @ 0xE0002014) -- CPU_WriteMem(4 bytes @ 0xE0002018) -- CPU_WriteMem(4 bytes @ 0xE000201C) -- CPU_WriteMem(4 bytes @ 0xE0001004) (0006ms, 0461ms total)
T2E54 006:681 JLINK_IsHalted()  returns TRUE (0003ms, 0464ms total)
T2E54 006:685 JLINK_Halt()  returns 0x00 (0000ms, 0461ms total)
T2E54 006:685 JLINK_IsHalted()  returns TRUE (0000ms, 0461ms total)
T2E54 006:685 JLINK_IsHalted()  returns TRUE (0000ms, 0461ms total)
T2E54 006:685 JLINK_IsHalted()  returns TRUE (0000ms, 0461ms total)
T2E54 006:685 JLINK_ReadReg(R15 (PC))  returns 0x08002E44 (0000ms, 0461ms total)
T2E54 006:685 JLINK_ReadReg(XPSR)  returns 0x61000000 (0000ms, 0461ms total)
T2E54 006:685 JLINK_ClrBPEx(BPHandle = 0x00000001)  returns 0x00 (0000ms, 0461ms total)
T2E54 006:685 JLINK_ClrBPEx(BPHandle = 0x00000002)  returns 0x00 (0000ms, 0461ms total)
T2E54 006:685 JLINK_ReadMemU32(0xE000ED30, 0x0001 Items, ...) -- CPU_ReadMem(4 bytes @ 0xE000ED30) - Data: 02 00 00 00  returns 0x01 (0001ms, 0462ms total)
T2E54 006:686 JLINK_ReadMemU32(0xE0001028, 0x0001 Items, ...) -- CPU_ReadMem(4 bytes @ 0xE0001028) - Data: 00 00 00 00  returns 0x01 (0001ms, 0463ms total)
T2E54 006:687 JLINK_ReadMemU32(0xE0001038, 0x0001 Items, ...) -- CPU_ReadMem(4 bytes @ 0xE0001038) - Data: 00 02 00 00  returns 0x01 (0001ms, 0464ms total)
T2E54 006:688 JLINK_ReadMemU32(0xE0001048, 0x0001 Items, ...) -- CPU_ReadMem(4 bytes @ 0xE0001048) - Data: 00 00 00 00  returns 0x01 (0002ms, 0466ms total)
T2E54 006:690 JLINK_ReadMemU32(0xE0001058, 0x0001 Items, ...) -- CPU_ReadMem(4 bytes @ 0xE0001058) - Data: 00 00 00 00  returns 0x01 (0002ms, 0468ms total)
T2E54 006:692 JLINK_ReadReg(R0)  returns 0x08002E45 (0000ms, 0468ms total)
T2E54 006:692 JLINK_ReadReg(R1)  returns 0x20000E50 (0000ms, 0468ms total)
T2E54 006:692 JLINK_ReadReg(R2)  returns 0x00000000 (0000ms, 0468ms total)
T2E54 006:692 JLINK_ReadReg(R3)  returns 0x08002DE7 (0000ms, 0468ms total)
T2E54 006:692 JLINK_ReadReg(R4)  returns 0x08002F10 (0000ms, 0468ms total)
T2E54 006:692 JLINK_ReadReg(R5)  returns 0x08002F10 (0000ms, 0468ms total)
T2E54 006:692 JLINK_ReadReg(R6)  returns 0x00000000 (0000ms, 0468ms total)
T2E54 006:692 JLINK_ReadReg(R7)  returns 0x00000000 (0000ms, 0468ms total)
T2E54 006:692 JLINK_ReadReg(R8)  returns 0x00000000 (0000ms, 0468ms total)
T2E54 006:692 JLINK_ReadReg(R9)  returns 0x00000000 (0000ms, 0468ms total)
T2E54 006:692 JLINK_ReadReg(R10)  returns 0x00000000 (0001ms, 0469ms total)
T2E54 006:693 JLINK_ReadReg(R11)  returns 0x00000000 (0000ms, 0469ms total)
T2E54 006:693 JLINK_ReadReg(R12)  returns 0x00000000 (0000ms, 0469ms total)
T2E54 006:693 JLINK_ReadReg(R13 (SP))  returns 0x20000E50 (0000ms, 0469ms total)
T2E54 006:693 JLINK_ReadReg(R14)  returns 0x080002A1 (0000ms, 0469ms total)
T2E54 006:693 JLINK_ReadReg(R15 (PC))  returns 0x08002E44 (0000ms, 0469ms total)
T2E54 006:693 JLINK_ReadReg(XPSR)  returns 0x61000000 (0000ms, 0469ms total)
T2E54 006:693 JLINK_ReadReg(MSP)  returns 0x20000E50 (0000ms, 0469ms total)
T2E54 006:693 JLINK_ReadReg(PSP)  returns 0x00000000 (0000ms, 0469ms total)
T2E54 006:693 JLINK_ReadReg(CFBP)  returns 0x00000000 (0000ms, 0469ms total)
T2E54 006:693 JLINK_ReadReg(FPSCR)  returns 0x00000000 (0006ms, 0475ms total)
T2E54 006:699 JLINK_ReadReg(FPS0)  returns 0x00000000 (0000ms, 0475ms total)
T2E54 006:699 JLINK_ReadReg(FPS1)  returns 0x00000000 (0000ms, 0475ms total)
T2E54 006:699 JLINK_ReadReg(FPS2)  returns 0x00000000 (0000ms, 0475ms total)
T2E54 006:699 JLINK_ReadReg(FPS3)  returns 0x00000000 (0000ms, 0475ms total)
T2E54 006:699 JLINK_ReadReg(FPS4)  returns 0x00000000 (0000ms, 0475ms total)
T2E54 006:699 JLINK_ReadReg(FPS5)  returns 0x00000000 (0000ms, 0475ms total)
T2E54 006:699 JLINK_ReadReg(FPS6)  returns 0x00000000 (0000ms, 0475ms total)
T2E54 006:699 JLINK_ReadReg(FPS7)  returns 0x00000000 (0000ms, 0475ms total)
T2E54 006:699 JLINK_ReadReg(FPS8)  returns 0x00000000 (0001ms, 0476ms total)
T2E54 006:700 JLINK_ReadReg(FPS9)  returns 0x00000000 (0000ms, 0476ms total)
T2E54 006:700 JLINK_ReadReg(FPS10)  returns 0x00000000 (0000ms, 0476ms total)
T2E54 006:700 JLINK_ReadReg(FPS11)  returns 0x00000000 (0000ms, 0476ms total)
T2E54 006:700 JLINK_ReadReg(FPS12)  returns 0x00000000 (0000ms, 0476ms total)
T2E54 006:700 JLINK_ReadReg(FPS13)  returns 0x00000000 (0000ms, 0476ms total)
T2E54 006:700 JLINK_ReadReg(FPS14)  returns 0x00000000 (0000ms, 0476ms total)
T2E54 006:700 JLINK_ReadReg(FPS15)  returns 0x00000000 (0000ms, 0476ms total)
T2E54 006:700 JLINK_ReadReg(FPS16)  returns 0x00000000 (0000ms, 0476ms total)
T2E54 006:700 JLINK_ReadReg(FPS17)  returns 0x00000000 (0000ms, 0476ms total)
T2E54 006:700 JLINK_ReadReg(FPS18)  returns 0x00000000 (0000ms, 0476ms total)
T2E54 006:700 JLINK_ReadReg(FPS19)  returns 0x00000000 (0000ms, 0476ms total)
T2E54 006:700 JLINK_ReadReg(FPS20)  returns 0x00000000 (0000ms, 0476ms total)
T2E54 006:700 JLINK_ReadReg(FPS21)  returns 0x00000000 (0000ms, 0476ms total)
T2E54 006:700 JLINK_ReadReg(FPS22)  returns 0x00000000 (0000ms, 0476ms total)
T2E54 006:700 JLINK_ReadReg(FPS23)  returns 0x00000000 (0000ms, 0476ms total)
T2E54 006:700 JLINK_ReadReg(FPS24)  returns 0x00000000 (0000ms, 0476ms total)
T2E54 006:700 JLINK_ReadReg(FPS25)  returns 0x00000000 (0000ms, 0476ms total)
T2E54 006:700 JLINK_ReadReg(FPS26)  returns 0x00000000 (0000ms, 0476ms total)
T2E54 006:700 JLINK_ReadReg(FPS27)  returns 0x00000000 (0000ms, 0476ms total)
T2E54 006:700 JLINK_ReadReg(FPS28)  returns 0x00000000 (0000ms, 0476ms total)
T2E54 006:700 JLINK_ReadReg(FPS29)  returns 0x00000000 (0000ms, 0476ms total)
T2E54 006:700 JLINK_ReadReg(FPS30)  returns 0x00000000 (0000ms, 0476ms total)
T2E54 006:700 JLINK_ReadReg(FPS31)  returns 0x00000000 (0000ms, 0476ms total)
T33D4 006:924 JLINK_ReadMemU32(0xE0001004, 0x0001 Items, ...) -- CPU_ReadMem(4 bytes @ 0xE0001004) - Data: 7E 1E 00 00  returns 0x01 (0001ms, 0477ms total)
T2E54 035:303 JLINK_ReadMemEx(0x08002E44, 0x0002 Bytes, ..., Flags = 0x02000000) -- CPU_ReadMem(64 bytes @ 0x08002E40) -- Updating C cache (64 bytes @ 0x08002E40) -- Read from C cache (2 bytes @ 0x08002E44) - Data: FD F7  returns 0x02 (0002ms, 0479ms total)
T2E54 035:305 JLINK_SetBPEx(Addr = 0x08002242, Type = 0xFFFFFFF2)  returns 0x00000003 (0000ms, 0479ms total)
T2E54 035:305 JLINK_Go() -- CPU_WriteMem(4 bytes @ 0xE0002000) -- CPU_ReadMem(4 bytes @ 0xE0001000) -- CPU_WriteMem(4 bytes @ 0xE0002008) -- CPU_WriteMem(4 bytes @ 0xE000200C) (0003ms, 0482ms total)
T2E54 035:409 JLINK_IsHalted()  returns FALSE (0000ms, 0482ms total)
T2E54 035:510 JLINK_IsHalted()  returns FALSE (0000ms, 0482ms total)
T2E54 035:611 JLINK_IsHalted()  returns FALSE (0000ms, 0482ms total)
T2E54 035:713 JLINK_IsHalted()  returns FALSE (0001ms, 0483ms total)
T2E54 035:815 JLINK_IsHalted()  returns FALSE (0000ms, 0482ms total)
T2E54 035:916 JLINK_ReadMemU32(0xE0001004, 0x0001 Items, ...) -- CPU_ReadMem(4 bytes @ 0xE0001004) - Data: F1 C6 17 06  returns 0x01 (0001ms, 0483ms total)
T2E54 035:918 JLINK_IsHalted()  returns FALSE (0001ms, 0484ms total)
T2E54 036:021 JLINK_IsHalted()  returns FALSE (0000ms, 0483ms total)
T2E54 036:122 JLINK_IsHalted()  returns FALSE (0000ms, 0483ms total)
T2E54 036:223 JLINK_IsHalted()  returns FALSE (0000ms, 0483ms total)
T2E54 036:324 JLINK_IsHalted()  returns FALSE (0000ms, 0483ms total)
T2E54 036:425 JLINK_IsHalted()  returns FALSE (0000ms, 0483ms total)
T2E54 036:526 JLINK_ReadMemU32(0xE0001004, 0x0001 Items, ...) - Data: F1 C6 17 06  returns 0x01 (0000ms, 0483ms total)
T2E54 036:526 JLINK_IsHalted()  returns FALSE (0001ms, 0484ms total)
T2E54 036:628 JLINK_Halt()  returns 0x00 (0004ms, 0487ms total)
T2E54 036:632 JLINK_IsHalted()  returns TRUE (0000ms, 0487ms total)
T2E54 036:632 JLINK_IsHalted()  returns TRUE (0000ms, 0487ms total)
T2E54 036:632 JLINK_IsHalted()  returns TRUE (0001ms, 0488ms total)
T2E54 036:633 JLINK_ReadReg(R15 (PC))  returns 0x08002DB4 (0000ms, 0487ms total)
T2E54 036:633 JLINK_ReadReg(XPSR)  returns 0x0100000F (0000ms, 0487ms total)
T2E54 036:633 JLINK_ClrBPEx(BPHandle = 0x00000003)  returns 0x00 (0000ms, 0487ms total)
T2E54 036:633 JLINK_ReadMemU32(0xE000ED30, 0x0001 Items, ...) -- CPU_ReadMem(4 bytes @ 0xE000ED30) - Data: 01 00 00 00  returns 0x01 (0000ms, 0487ms total)
T2E54 036:633 JLINK_ReadMemU32(0xE0001028, 0x0001 Items, ...) -- CPU_ReadMem(4 bytes @ 0xE0001028) - Data: 00 00 00 00  returns 0x01 (0001ms, 0488ms total)
T2E54 036:634 JLINK_ReadMemU32(0xE0001038, 0x0001 Items, ...) -- CPU_ReadMem(4 bytes @ 0xE0001038) - Data: 00 02 00 00  returns 0x01 (0001ms, 0489ms total)
T2E54 036:635 JLINK_ReadMemU32(0xE0001048, 0x0001 Items, ...) -- CPU_ReadMem(4 bytes @ 0xE0001048) - Data: 00 00 00 00  returns 0x01 (0000ms, 0489ms total)
T2E54 036:635 JLINK_ReadMemU32(0xE0001058, 0x0001 Items, ...) -- CPU_ReadMem(4 bytes @ 0xE0001058) - Data: 00 00 00 00  returns 0x01 (0001ms, 0490ms total)
T2E54 036:636 JLINK_ReadReg(R0)  returns 0x00000088 (0000ms, 0490ms total)
T2E54 036:636 JLINK_ReadReg(R1)  returns 0x000000F8 (0000ms, 0490ms total)
T2E54 036:636 JLINK_ReadReg(R2)  returns 0x08002DB5 (0000ms, 0490ms total)
T2E54 036:636 JLINK_ReadReg(R3)  returns 0x00000100 (0000ms, 0490ms total)
T2E54 036:636 JLINK_ReadReg(R4)  returns 0x00000000 (0000ms, 0490ms total)
T2E54 036:636 JLINK_ReadReg(R5)  returns 0x00000000 (0000ms, 0490ms total)
T2E54 036:636 JLINK_ReadReg(R6)  returns 0x2000000C (0000ms, 0490ms total)
T2E54 036:636 JLINK_ReadReg(R7)  returns 0x00000000 (0000ms, 0490ms total)
T2E54 036:636 JLINK_ReadReg(R8)  returns 0x20000008 (0000ms, 0490ms total)
T2E54 036:636 JLINK_ReadReg(R9)  returns 0x00000000 (0000ms, 0490ms total)
T2E54 036:636 JLINK_ReadReg(R10)  returns 0x00000000 (0000ms, 0490ms total)
T2E54 036:636 JLINK_ReadReg(R11)  returns 0x00000000 (0000ms, 0490ms total)
T2E54 036:636 JLINK_ReadReg(R12)  returns 0x48000000 (0000ms, 0490ms total)
T2E54 036:636 JLINK_ReadReg(R13 (SP))  returns 0x20000DD8 (0000ms, 0490ms total)
T2E54 036:636 JLINK_ReadReg(R14)  returns 0x0800030F (0000ms, 0490ms total)
T2E54 036:636 JLINK_ReadReg(R15 (PC))  returns 0x08002DB4 (0000ms, 0490ms total)
T2E54 036:636 JLINK_ReadReg(XPSR)  returns 0x0100000F (0000ms, 0490ms total)
T2E54 036:636 JLINK_ReadReg(MSP)  returns 0x20000DD8 (0000ms, 0490ms total)
T2E54 036:636 JLINK_ReadReg(PSP)  returns 0x00000000 (0000ms, 0490ms total)
T2E54 036:636 JLINK_ReadReg(CFBP)  returns 0x00000000 (0000ms, 0490ms total)
T2E54 036:636 JLINK_ReadReg(FPSCR)  returns 0x00000000 (0006ms, 0496ms total)
T2E54 036:642 JLINK_ReadReg(FPS0)  returns 0x00000000 (0000ms, 0496ms total)
T2E54 036:642 JLINK_ReadReg(FPS1)  returns 0x00000000 (0000ms, 0496ms total)
T2E54 036:642 JLINK_ReadReg(FPS2)  returns 0x00000000 (0000ms, 0496ms total)
T2E54 036:642 JLINK_ReadReg(FPS3)  returns 0x00000000 (0000ms, 0496ms total)
T2E54 036:642 JLINK_ReadReg(FPS4)  returns 0x00000000 (0000ms, 0496ms total)
T2E54 036:642 JLINK_ReadReg(FPS5)  returns 0x00000000 (0000ms, 0496ms total)
T2E54 036:642 JLINK_ReadReg(FPS6)  returns 0x00000000 (0000ms, 0496ms total)
T2E54 036:642 JLINK_ReadReg(FPS7)  returns 0x00000000 (0000ms, 0496ms total)
T2E54 036:642 JLINK_ReadReg(FPS8)  returns 0x00000000 (0000ms, 0496ms total)
T2E54 036:642 JLINK_ReadReg(FPS9)  returns 0x00000000 (0000ms, 0496ms total)
T2E54 036:642 JLINK_ReadReg(FPS10)  returns 0x00000000 (0000ms, 0496ms total)
T2E54 036:642 JLINK_ReadReg(FPS11)  returns 0x00000000 (0000ms, 0496ms total)
T2E54 036:642 JLINK_ReadReg(FPS12)  returns 0x00000000 (0000ms, 0496ms total)
T2E54 036:642 JLINK_ReadReg(FPS13)  returns 0x00000000 (0000ms, 0496ms total)
T2E54 036:642 JLINK_ReadReg(FPS14)  returns 0x00000000 (0000ms, 0496ms total)
T2E54 036:642 JLINK_ReadReg(FPS15)  returns 0x00000000 (0000ms, 0496ms total)
T2E54 036:642 JLINK_ReadReg(FPS16)  returns 0x00000000 (0000ms, 0496ms total)
T2E54 036:642 JLINK_ReadReg(FPS17)  returns 0x00000000 (0001ms, 0497ms total)
T2E54 036:643 JLINK_ReadReg(FPS18)  returns 0x00000000 (0000ms, 0497ms total)
T2E54 036:643 JLINK_ReadReg(FPS19)  returns 0x00000000 (0000ms, 0497ms total)
T2E54 036:643 JLINK_ReadReg(FPS20)  returns 0x00000000 (0000ms, 0497ms total)
T2E54 036:643 JLINK_ReadReg(FPS21)  returns 0x00000000 (0000ms, 0497ms total)
T2E54 036:643 JLINK_ReadReg(FPS22)  returns 0x00000000 (0000ms, 0497ms total)
T2E54 036:643 JLINK_ReadReg(FPS23)  returns 0x00000000 (0000ms, 0497ms total)
T2E54 036:643 JLINK_ReadReg(FPS24)  returns 0x00000000 (0000ms, 0497ms total)
T2E54 036:643 JLINK_ReadReg(FPS25)  returns 0x00000000 (0000ms, 0497ms total)
T2E54 036:643 JLINK_ReadReg(FPS26)  returns 0x00000000 (0000ms, 0497ms total)
T2E54 036:643 JLINK_ReadReg(FPS27)  returns 0x00000000 (0000ms, 0497ms total)
T2E54 036:643 JLINK_ReadReg(FPS28)  returns 0x00000000 (0000ms, 0497ms total)
T2E54 036:643 JLINK_ReadReg(FPS29)  returns 0x00000000 (0000ms, 0497ms total)
T2E54 036:643 JLINK_ReadReg(FPS30)  returns 0x00000000 (0000ms, 0497ms total)
T2E54 036:643 JLINK_ReadReg(FPS31)  returns 0x00000000 (0000ms, 0497ms total)
T33D4 036:644 JLINK_ReadMemEx(0x20000DDC, 0x0004 Bytes, ..., Flags = 0x02000000) -- CPU_ReadMem(64 bytes @ 0x20000DC0) -- Updating C cache (64 bytes @ 0x20000DC0) -- Read from C cache (4 bytes @ 0x20000DDC) - Data: 21 03 00 08  returns 0x04 (0001ms, 0498ms total)
T33D4 036:645 JLINK_ReadMemEx(0x20000DD8, 0x0004 Bytes, ..., Flags = 0x02000000) -- Read from C cache (4 bytes @ 0x20000DD8) - Data: 00 00 00 00  returns 0x04 (0000ms, 0498ms total)
T33D4 036:645 JLINK_ReadMemEx(0x20000DE4, 0x0004 Bytes, ..., Flags = 0x02000000) -- Read from C cache (4 bytes @ 0x20000DE4) - Data: E7 18 00 08  returns 0x04 (0000ms, 0498ms total)
T33D4 036:645 JLINK_ReadMemEx(0x20000DE0, 0x0004 Bytes, ..., Flags = 0x02000000) -- Read from C cache (4 bytes @ 0x20000DE0) - Data: 00 00 00 00  returns 0x04 (0000ms, 0498ms total)
T33D4 036:645 JLINK_ReadMemEx(0x20000DFC, 0x0004 Bytes, ..., Flags = 0x02000000) -- Read from C cache (4 bytes @ 0x20000DFC) - Data: F9 FF FF FF  returns 0x04 (0000ms, 0498ms total)
T33D4 036:645 JLINK_ReadMemEx(0x20000E18, 0x0004 Bytes, ..., Flags = 0x02000000) -- CPU_ReadMem(64 bytes @ 0x20000E00) -- Updating C cache (64 bytes @ 0x20000E00) -- Read from C cache (4 bytes @ 0x20000E18) - Data: D0 05 00 08  returns 0x04 (0001ms, 0499ms total)
T33D4 036:647 JLINK_ReadMemEx(0x20000E1C, 0x0004 Bytes, ..., Flags = 0x02000000) -- Read from C cache (4 bytes @ 0x20000E1C) - Data: 00 00 00 81  returns 0x04 (0000ms, 0500ms total)
T33D4 036:647 JLINK_ReadMemEx(0x20000E14, 0x0004 Bytes, ..., Flags = 0x02000000) -- Read from C cache (4 bytes @ 0x20000E14) - Data: 79 03 00 08  returns 0x04 (0000ms, 0500ms total)
T33D4 036:647 JLINK_ReadMemEx(0xE000ED28, 0x0004 Bytes, ..., Flags = 0x02000000) -- CPU_ReadMem(4 bytes @ 0xE000ED28) - Data: 00 00 00 00  returns 0x04 (0000ms, 0500ms total)
T33D4 036:647 JLINK_ReadMemEx(0x20000E08, 0x0004 Bytes, ..., Flags = 0x02000000) -- Read from C cache (4 bytes @ 0x20000E08) - Data: 28 05 00 20  returns 0x04 (0000ms, 0500ms total)
T33D4 036:647 JLINK_ReadMemEx(0x20000E0C, 0x0004 Bytes, ..., Flags = 0x02000000) -- Read from C cache (4 bytes @ 0x20000E0C) - Data: 00 01 00 00  returns 0x04 (0000ms, 0500ms total)
T33D4 036:647 JLINK_ReadMemEx(0x20000E10, 0x0004 Bytes, ..., Flags = 0x02000000) -- Read from C cache (4 bytes @ 0x20000E10) - Data: 00 00 00 48  returns 0x04 (0000ms, 0500ms total)
T33D4 036:655 JLINK_ReadMemU32(0xE0001004, 0x0001 Items, ...) -- CPU_ReadMem(4 bytes @ 0xE0001004) - Data: 27 E3 37 0D  returns 0x01 (0001ms, 0501ms total)
T33D4 45968:972 JLINK_Close() (0099ms, 0620ms total)
T33D4 45968:972  (0099ms, 0620ms total)
T33D4 45968:972 Closed (0099ms, 0620ms total)
